!atf35143
!2V 10mA

# ghz s ma r 50
 0.500000   0.990000    -18.750000   6.230000    164.760000   0.024000     77.630000   0.630000    -14.090000   
 0.550000   0.985299    -21.179873   6.213546    162.699418   0.026821     75.974496   0.625299    -15.405507   
 0.600000   0.981007    -23.407070   6.198524    160.812841   0.029396     74.460339   0.621007    -16.607875   
 0.650000   0.977059    -25.457447   6.184705    159.076413   0.031765     73.066961   0.617059    -17.714191   
 0.700000   0.973403    -27.352434   6.171911    157.470778   0.033958     71.777951   0.613403    -18.737950   
 0.750000   0.970000    -29.110000   6.160000    155.980000   0.036000     70.580000   0.610000    -19.690000   
 0.800000   0.965513    -31.163434   6.130836    154.286098   0.038468     69.302166   0.607757    -21.126734   
 0.850000   0.961299    -33.098381   6.103440    152.691538   0.040786     68.100376   0.605649    -22.478400   
 0.900000   0.957325    -34.924021   6.077611    151.187406   0.042971     66.966980   0.603662    -23.753237   
 0.950000   0.953566    -36.648696   6.053179    149.765868   0.045039     65.895415   0.601783    -24.958367   
 1.000000   0.950000    -38.280000   6.030000    148.420000   0.047000     64.880000   0.600000    -26.100000   
 1.050000   0.945187    -40.333577   5.993901    146.687647   0.049286     63.595077   0.596390    -27.611558   
 1.100000   0.940597    -42.307585   5.959481    145.026376   0.051466     62.366087   0.592948    -29.059083   
 1.150000   0.936212    -44.204154   5.926591    143.432836   0.053549     61.189267   0.589659    -30.446296   
 1.200000   0.932014    -46.025604   5.895102    141.903807   0.055544     60.061205   0.586510    -31.776649   
 1.250000   0.927986    -47.774396   5.864898    140.436193   0.057456     58.978795   0.583490    -33.053351   
 1.300000   0.924117    -49.453098   5.835879    139.027031   0.059294     57.939197   0.580588    -34.279393   
 1.350000   0.920394    -51.064342   5.807955    137.673482   0.061063     56.939812   0.577796    -35.457561   
 1.400000   0.916806    -52.610796   5.781047    136.372832   0.062767     55.978254   0.575105    -36.590457   
 1.450000   0.913344    -54.095130   5.755083    135.122494   0.064411     55.052325   0.572508    -37.680512   
 1.500000   0.910000    -55.520000   5.730000    133.920000   0.066000     54.160000   0.570000    -38.730000   
 1.550000   0.905746    -57.274252   5.695966    132.451768   0.067702     53.086430   0.567873    -40.017952   
 1.600000   0.901627    -58.977093   5.663013    131.027643   0.069349     52.045967   0.565813    -41.266702   
 1.650000   0.897634    -60.628695   5.631073    129.646664   0.070946     51.037258   0.563817    -42.477483   
 1.700000   0.893761    -62.229462   5.600087    128.307806   0.072496     50.059013   0.561880    -43.651513   
 1.750000   0.890000    -63.780000   5.570000    127.010000   0.074000     49.110000   0.560000    -44.790000   
 1.800000   0.883671    -65.473643   5.534135    125.589571   0.075688     48.049452   0.555781    -46.035813   
 1.850000   0.877515    -67.124815   5.499254    124.205745   0.077329     47.017000   0.551677    -47.249053   
 1.900000   0.871524    -68.733051   5.465302    122.858177   0.078927     46.011815   0.547683    -48.430372   
 1.950000   0.865688    -70.298120   5.432232    121.546433   0.080483     45.033081   0.543792    -49.580453   
 2.000000   0.860000    -71.820000   5.400000    120.270000   0.082000     44.080000   0.540000    -50.700000   
 2.050000   0.854467    -73.549807   5.364589    118.849781   0.083549     43.034278   0.536680    -51.939361   
 2.100000   0.849068    -75.248881   5.330032    117.457768   0.085061     42.011369   0.533441    -53.152841   
 2.150000   0.843795    -76.915606   5.296288    116.094332   0.086537     41.010880   0.530277    -54.340528   
 2.200000   0.838644    -78.548607   5.263320    114.759732   0.087980     40.032402   0.527186    -55.502568   
 2.250000   0.833608    -80.146746   5.231093    113.454123   0.089390     39.075520   0.524165    -56.639154   
 2.300000   0.828683    -81.709111   5.199574    112.177565   0.090769     38.139809   0.521210    -57.750524   
 2.350000   0.823864    -83.235010   5.168733    110.930024   0.092118     37.224838   0.518319    -58.836961   
 2.400000   0.819147    -84.723958   5.138541    109.711387   0.093439     36.330172   0.515488    -59.898781   
 2.450000   0.814527    -86.175660   5.108972    108.521464   0.094732     35.455372   0.512716    -60.936335   
 2.500000   0.810000    -87.590000   5.080000    107.360000   0.096000     34.600000   0.510000    -61.950000   
 2.550000   0.804569    -89.272933   5.045244    106.029076   0.097195     33.637128   0.505655    -63.088136   
 2.600000   0.799244    -90.933579   5.011162    104.718897   0.098366     32.691034   0.501395    -64.207349   
 2.650000   0.794020    -92.569955   4.977730    103.430076   0.099516     31.761612   0.497216    -65.307480   
 2.700000   0.788894    -94.180271   4.944923    102.163141   0.100643     30.848738   0.493115    -66.388418   
 2.750000   0.783862    -95.762936   4.912717    100.918530   0.101750     29.952269   0.489090    -67.450095   
 2.800000   0.778921    -97.316567   4.881092     99.696597   0.102837     29.072048   0.485137    -68.492485   
 2.850000   0.774067    -98.839979   4.850027     98.497615   0.103905     28.207902   0.481253    -69.515603   
 2.900000   0.769297   -100.332187   4.819502     97.321784   0.104955     27.359645   0.477438    -70.519499   
 2.950000   0.764609   -101.792397   4.789499     96.169226   0.105986     26.527080   0.473687    -71.504260   
 3.000000   0.760000   -103.220000   4.760000     95.040000   0.107000     25.710000   0.470000    -72.470000   
 3.050000   0.754254   -104.958765   4.726100     93.743193   0.107862     24.763451   0.466553    -73.545021   
 3.100000   0.748602   -106.695441   4.692752     92.457027   0.108710     23.828317   0.463161    -74.608427   
 3.150000   0.743040   -108.427081   4.659937     91.182483   0.109544     22.904761   0.459824    -75.659822   
 3.200000   0.737566   -110.150784   4.627640     89.920487   0.110365     21.992923   0.456540    -76.698847   
 3.250000   0.732177   -111.863722   4.595842     88.671907   0.111173     21.092926   0.453306    -77.725172   
 3.300000   0.726870   -113.563170   4.564531     87.437547   0.111970     20.204868   0.450122    -78.738505   
 3.350000   0.721642   -115.246533   4.533690     86.218151   0.112754     19.328831   0.446985    -79.738584   
 3.400000   0.716493   -116.911364   4.503306     85.014397   0.113526     18.464876   0.443896    -80.725182   
 3.450000   0.711418   -118.555387   4.473366     83.826897   0.114287     17.613047   0.440851    -81.698102   
 3.500000   0.706416   -120.176507   4.443856     82.656201   0.115038     16.773370   0.437850    -82.657178   
 3.550000   0.701486   -121.772826   4.414765     81.502792   0.115777     15.945855   0.434891    -83.602276   
 3.600000   0.696624   -123.342646   4.386081     80.367089   0.116506     15.130496   0.431974    -84.533288   
 3.650000   0.691829   -124.884476   4.357793     79.249453   0.117226     14.327272   0.429098    -85.450136   
 3.700000   0.687100   -126.397027   4.329889     78.150180   0.117935     13.536148   0.426260    -86.352767   
 3.750000   0.682434   -127.879216   4.302360     77.069513   0.118635     12.757077   0.423460    -87.241153   
 3.800000   0.677830   -129.330154   4.275196     76.007637   0.119326     11.989996   0.420698    -88.115290   
 3.850000   0.673286   -130.749140   4.248387     74.964686   0.120007     11.234836   0.417972    -88.975195   
 3.900000   0.668801   -132.135654   4.221924     73.940744   0.120680     10.491512   0.415280    -89.820907   
 3.950000   0.664372   -133.489340   4.195798     72.935851   0.121344      9.759934   0.412623    -90.652483   
 4.000000   0.660000   -134.810000   4.170000     71.950000   0.122000      9.040000   0.410000    -91.470000   
 4.050000   0.657216   -136.442488   4.142165     70.775546   0.122501      8.212396   0.406103    -92.489175   
 4.100000   0.654467   -138.077406   4.114671     69.607463   0.122996      7.392189   0.402254    -93.501047   
 4.150000   0.651751   -139.712219   4.087511     68.446574   0.123485      6.579550   0.398451    -94.505146   
 4.200000   0.649068   -141.344389   4.060675     67.293671   0.123968      5.774640   0.394695    -95.501024   
 4.250000   0.646416   -142.971400   4.034158     66.149516   0.124445      4.977604   0.390982    -96.488259   
 4.300000   0.643795   -144.590783   4.007950     65.014830   0.124917      4.188576   0.387313    -97.466452   
 4.350000   0.641205   -146.200135   3.982046     63.890298   0.125383      3.407678   0.383686    -98.435231   
 4.400000   0.638644   -147.797145   3.956438     62.776566   0.125844      2.635018   0.380101    -99.394249   
 4.450000   0.636112   -149.379606   3.931118     61.674235   0.126300      1.870695   0.376557   -100.343185   
 4.500000   0.633608   -150.945439   3.906082     60.583865   0.126751      1.114794   0.373052   -101.281745   
 4.550000   0.631132   -152.492700   3.881323     59.505972   0.127196      0.367388   0.369585   -102.209661   
 4.600000   0.628683   -154.019596   3.856834     58.441029   0.127637     -0.371459   0.366157   -103.126689   
 4.650000   0.626261   -155.524494   3.832610     57.389463   0.128073     -1.101696   0.362765   -104.032614   
 4.700000   0.623864   -157.005920   3.808645     56.351658   0.128504     -1.823282   0.359410   -104.927241   
 4.750000   0.621493   -158.462570   3.784933     55.327955   0.128931     -2.536184   0.356091   -105.810405   
 4.800000   0.619147   -159.893306   3.761470     54.318653   0.129354     -3.240381   0.352806   -106.681960   
 4.850000   0.616825   -161.297153   3.738250     53.324008   0.129771     -3.935860   0.349555   -107.541785   
 4.900000   0.614527   -162.673298   3.715268     52.344238   0.130185     -4.622619   0.346338   -108.389782   
 4.950000   0.612252   -164.021084   3.692520     51.379522   0.130595     -5.300661   0.343153   -109.225873   
 5.000000   0.610000   -165.340000   3.670000     50.430000   0.131000     -5.970000   0.340000   -110.050000   
 5.050000   0.608363   -166.855332   3.647624     49.349346   0.131273     -6.737238   0.336180   -111.080852   
 5.100000   0.606742   -168.374007   3.625468     48.272942   0.131543     -7.499167   0.332397   -112.107083   
 5.150000   0.605136   -169.893972   3.603529     47.201466   0.131811     -8.255613   0.328651   -113.128120   
 5.200000   0.603546   -171.413163   3.581801     46.135578   0.132076     -9.006409   0.324942   -114.143407   
 5.250000   0.601972   -172.929518   3.560282     45.075915   0.132338     -9.751398   0.321268   -115.152408   
 5.300000   0.600412   -174.441000   3.538966     44.023094   0.132598    -10.490432   0.317628   -116.154606   
 5.350000   0.598867   -175.945608   3.517851     42.977706   0.132855    -11.223372   0.314023   -117.149509   
 5.400000   0.597336   -177.441398   3.496932     41.940314   0.133111    -11.950087   0.310452   -118.136645   
 5.450000   0.595820   -178.926491   3.476206     40.911455   0.133363    -12.670458   0.306913   -119.115569   
 5.500000   0.594317    179.600907   3.455669     39.891637   0.133614    -13.384372   0.303407   -120.085860   
 5.550000   0.592828    178.142497   3.435318     38.881335   0.133862    -14.091727   0.299932   -121.047122   
 5.600000   0.591352    176.699877   3.415149     37.880996   0.134108    -14.792428   0.296489   -121.998986   
 5.650000   0.589890    175.274533   3.395160     36.891034   0.134352    -15.486390   0.293076   -122.941109   
 5.700000   0.588440    173.867831   3.375347     35.911831   0.134593    -16.173536   0.289693   -123.873176   
 5.750000   0.587003    172.481017   3.355707     34.943739   0.134833    -16.853798   0.286340   -124.794896   
 5.800000   0.585578    171.115208   3.336237     33.987075   0.135070    -17.527115   0.283016   -125.706008   
 5.850000   0.584166    169.771397   3.316934     33.042129   0.135306    -18.193435   0.279720   -126.606272   
 5.900000   0.582766    168.450450   3.297795     32.109155   0.135539    -18.852712   0.276453   -127.495480   
 5.950000   0.581377    167.153111   3.278818     31.188380   0.135771    -19.504911   0.273213   -128.373443   
 6.000000   0.580000    165.880000   3.260000     30.280000   0.136000    -20.150000   0.270000   -129.240000   
 6.050000   0.579462    164.380532   3.241158     29.242157   0.136162    -20.881096   0.266770   -130.361924   
 6.100000   0.578928    162.875376   3.222470     28.207098   0.136322    -21.608154   0.263566   -131.481928   
 6.150000   0.578398    161.366535   3.203935     27.175451   0.136481    -22.331001   0.260389   -132.599201   
 6.200000   0.577873    159.856043   3.185551     26.147830   0.136638    -23.049468   0.257237   -133.712944   
 6.250000   0.577352    158.345948   3.167313     25.124834   0.136794    -23.763395   0.254111   -134.822374   
 6.300000   0.576835    156.838295   3.149222     24.107047   0.136950    -24.472627   0.251009   -135.926723   
 6.350000   0.576322    155.335111   3.131273     23.095034   0.137103    -25.177019   0.247932   -137.025248   
 6.400000   0.575813    153.838386   3.113465     22.089341   0.137256    -25.876430   0.244880   -138.117228   
 6.450000   0.575308    152.350060   3.095796     21.090492   0.137407    -26.570728   0.241851   -139.201969   
 6.500000   0.574808    150.872007   3.078263     20.098987   0.137558    -27.259789   0.238845   -140.278805   
 6.550000   0.574310    149.406023   3.060864     19.115304   0.137707    -27.943494   0.235862   -141.347103   
 6.600000   0.573817    147.953810   3.043598     18.139895   0.137855    -28.621733   0.232902   -142.406260   
 6.650000   0.573327    146.516972   3.026462     17.173186   0.138002    -29.294404   0.229965   -143.455710   
 6.700000   0.572842    145.097003   3.009454     16.215577   0.138148    -29.961409   0.227049   -144.494921   
 6.750000   0.572359    143.695281   2.992573     15.267441   0.138292    -30.622661   0.224155   -145.523398   
 6.800000   0.571880    142.313061   2.975816     14.329124   0.138436    -31.278078   0.221283   -146.540680   
 6.850000   0.571405    140.951477   2.959183     13.400943   0.138578    -31.927585   0.218431   -147.546348   
 6.900000   0.570933    139.611538   2.942670     12.483190   0.138720    -32.571114   0.215601   -148.540016   
 6.950000   0.570465    138.294125   2.926276     11.576130   0.138860    -33.208604   0.212790   -149.521337   
 7.000000   0.570000    137.000000   2.910000     10.680000   0.139000    -33.840000   0.210000   -150.490000   
 7.050000   0.570533    135.643510   2.894009      9.694628   0.139000    -34.463110   0.207868   -151.751526   
 7.100000   0.571062    134.283252   2.878132      8.711242   0.139000    -35.083053   0.205751   -153.014790   
 7.150000   0.571588    132.920714   2.862366      7.730388   0.139000    -35.699725   0.203649   -154.278598   
 7.200000   0.572110    131.557400   2.846710      6.752606   0.139000    -36.313024   0.201561   -155.541753   
 7.250000   0.572628    130.194820   2.831162      5.778424   0.139000    -36.922853   0.199488   -156.803060   
 7.300000   0.573143    128.834477   2.815721      4.808359   0.139000    -37.529120   0.197429   -158.061333   
 7.350000   0.573654    127.477865   2.800385      3.842914   0.139000    -38.131735   0.195385   -159.315406   
 7.400000   0.574162    126.126448   2.785153      2.882578   0.139000    -38.730613   0.193354   -160.564135   
 7.450000   0.574666    124.781659   2.770024      1.927824   0.139000    -39.325673   0.191337   -161.806403   
 7.500000   0.575167    123.444889   2.754996      0.979107   0.139000    -39.916836   0.189333   -163.041131   
 7.550000   0.575664    122.117478   2.740068      0.036865   0.139000    -40.504031   0.187342   -164.267280   
 7.600000   0.576159    120.800707   2.725239     -0.898486   0.139000    -41.087186   0.185365   -165.483854   
 7.650000   0.576650    119.495794   2.710506     -1.826548   0.139000    -41.666238   0.183401   -166.689909   
 7.700000   0.577138    118.203885   2.695870     -2.746945   0.139000    -42.241124   0.181449   -167.884551   
 7.750000   0.577622    116.926054   2.681329     -3.659320   0.139000    -42.811786   0.179510   -169.066944   
 7.800000   0.578104    115.663294   2.666881     -4.563342   0.139000    -43.378172   0.177584   -170.236308   
 7.850000   0.578583    114.416520   2.652525     -5.458698   0.139000    -43.940230   0.175670   -171.391924   
 7.900000   0.579058    113.186561   2.638260     -6.345101   0.139000    -44.497915   0.173768   -172.533133   
 7.950000   0.579530    111.974166   2.624086     -7.222283   0.139000    -45.051185   0.171878   -173.659338   
 8.000000   0.580000    110.780000   2.610000     -8.090000   0.139000    -45.600000   0.170000   -174.770000   
 8.050000   0.581587    109.540297   2.594659     -9.043626   0.138947    -46.233451   0.167884   -176.352698   
 8.100000   0.583164    108.298070   2.579414     -9.995898   0.138895    -46.864293   0.165781   -177.947541   
 8.150000   0.584732    107.054458   2.564262    -10.946310   0.138842    -47.492401   0.163691   -179.552202   
 8.200000   0.586289    105.810609   2.549203    -11.894365   0.138790    -48.117655   0.161614    178.835733   
 8.250000   0.587838    104.567670   2.534235    -12.839574   0.138739    -48.739938   0.159550    177.218748   
 8.300000   0.589377    103.326786   2.519358    -13.781453   0.138687    -49.359138   0.157498    175.599375   
 8.350000   0.590906    102.089088   2.504571    -14.719532   0.138636    -49.975144   0.155458    173.980167   
 8.400000   0.592427    100.855691   2.489871    -15.653351   0.138586    -50.587850   0.153430    172.363678   
 8.450000   0.593939     99.627689   2.475259    -16.582462   0.138535    -51.197157   0.151415    170.752434   
 8.500000   0.595441     98.406142   2.460733    -17.506433   0.138485    -51.802964   0.149411    169.148914   
 8.550000   0.596935     97.192082   2.446292    -18.424846   0.138435    -52.405179   0.147420    167.555525   
 8.600000   0.598420     95.986497   2.431935    -19.337298   0.138386    -53.003713   0.145439    165.974581   
 8.650000   0.599897     94.790335   2.417662    -20.243406   0.138337    -53.598478   0.143471    164.408288   
 8.700000   0.601365     93.604495   2.403471    -21.142802   0.138288    -54.189394   0.141513    162.858722   
 8.750000   0.602825     92.429827   2.389361    -22.035136   0.138239    -54.776383   0.139567    161.327818   
 8.800000   0.604276     91.267127   2.375332    -22.920078   0.138191    -55.359372   0.137632    159.817361   
 8.850000   0.605719     90.117138   2.361382    -23.797318   0.138143    -55.938292   0.135708    158.328975   
 8.900000   0.607154     88.980545   2.347510    -24.666563   0.138095    -56.513077   0.133795    156.864120   
 8.950000   0.608581     87.857975   2.333717    -25.527541   0.138047    -57.083665   0.131892    155.424087   
 9.000000   0.610000     86.750000   2.320000    -26.380000   0.138000    -57.650000   0.130000    154.010000   
 9.050000   0.612103     85.691494   2.308432    -27.289107   0.138000    -58.203132   0.128948    152.229214   
 9.100000   0.614195     84.632506   2.296927    -28.197169   0.138000    -58.754095   0.127902    150.425907   
 9.150000   0.616275     83.573743   2.285486    -29.103745   0.138000    -59.302809   0.126862    148.603253   
 9.200000   0.618344     82.515910   2.274107    -30.008400   0.138000    -59.849194   0.125828    146.764654   
