!atf35143
!2V 10mA
# ghz s ma r 50
0.10 1.000 -4.34 6.25  170    0.01  80 0.64 -7
 0.500000   0.990000    -18.750000   6.230000    164.760000   0.024000     77.630000   0.630000    -14.090000   
 0.600000   0.981007    -23.407070   6.198524    160.812841   0.029396     74.460339   0.621007    -16.607875   
 0.700000   0.973403    -27.352434   6.171911    157.470778   0.033958     71.777951   0.613403    -18.737950   
 0.800000   0.965513    -31.163434   6.130836    154.286098   0.038468     69.302166   0.607757    -21.126734   
 0.900000   0.957325    -34.924021   6.077611    151.187406   0.042971     66.966980   0.603662    -23.753237   
 1.000000   0.950000    -38.280000   6.030000    148.420000   0.047000     64.880000   0.600000    -26.100000   
 1.100000   0.940597    -42.307585   5.959481    145.026376   0.051466     62.366087   0.592948    -29.059083   
 1.200000   0.932014    -46.025604   5.895102    141.903807   0.055544     60.061205   0.586510    -31.776649   
 1.300000   0.924117    -49.453098   5.835879    139.027031   0.059294     57.939197   0.580588    -34.279393   
 1.400000   0.916806    -52.610796   5.781047    136.372832   0.062767     55.978254   0.575105    -36.590457   
 1.500000   0.910000    -55.520000   5.730000    133.920000   0.066000     54.160000   0.570000    -38.730000   
 1.600000   0.901627    -58.977093   5.663013    131.027643   0.069349     52.045967   0.565813    -41.266702   
 1.700000   0.893761    -62.229462   5.600087    128.307806   0.072496     50.059013   0.561880    -43.651513   
 1.800000   0.883671    -65.473643   5.534135    125.589571   0.075688     48.049452   0.555781    -46.035813   
 1.900000   0.871524    -68.733051   5.465302    122.858177   0.078927     46.011815   0.547683    -48.430372   
 2.000000   0.860000    -71.820000   5.400000    120.270000   0.082000     44.080000   0.540000    -50.700000   
 2.100000   0.849068    -75.248881   5.330032    117.457768   0.085061     42.011369   0.533441    -53.152841   
 2.200000   0.838644    -78.548607   5.263320    114.759732   0.087980     40.032402   0.527186    -55.502568   
 2.300000   0.828683    -81.709111   5.199574    112.177565   0.090769     38.139809   0.521210    -57.750524   
 2.400000   0.819147    -84.723958   5.138541    109.711387   0.093439     36.330172   0.515488    -59.898781   
 2.500000   0.810000    -87.590000   5.080000    107.360000   0.096000     34.600000   0.510000    -61.950000   
 2.600000   0.799244    -90.933579   5.011162    104.718897   0.098366     32.691034   0.501395    -64.207349   
 2.700000   0.788894    -94.180271   4.944923    102.163141   0.100643     30.848738   0.493115    -66.388418   
 2.800000   0.778921    -97.316567   4.881092     99.696597   0.102837     29.072048   0.485137    -68.492485   
 2.900000   0.769297   -100.332187   4.819502     97.321784   0.104955     27.359645   0.477438    -70.519499   
 3.000000   0.760000   -103.220000   4.760000     95.040000   0.107000     25.710000   0.470000    -72.470000   
 3.100000   0.748602   -106.695441   4.692752     92.457027   0.108710     23.828317   0.463161    -74.608427   
 3.200000   0.737566   -110.150784   4.627640     89.920487   0.110365     21.992923   0.456540    -76.698847   
 3.300000   0.726870   -113.563170   4.564531     87.437547   0.111970     20.204868   0.450122    -78.738505   
 3.400000   0.716493   -116.911364   4.503306     85.014397   0.113526     18.464876   0.443896    -80.725182   
 3.500000   0.706416   -120.176507   4.443856     82.656201   0.115038     16.773370   0.437850    -82.657178   
 3.600000   0.696624   -123.342646   4.386081     80.367089   0.116506     15.130496   0.431974    -84.533288   
 3.700000   0.687100   -126.397027   4.329889     78.150180   0.117935     13.536148   0.426260    -86.352767   
 3.800000   0.677830   -129.330154   4.275196     76.007637   0.119326     11.989996   0.420698    -88.115290   
 3.900000   0.668801   -132.135654   4.221924     73.940744   0.120680     10.491512   0.415280    -89.820907   
 4.000000   0.660000   -134.810000   4.170000     71.950000   0.122000      9.040000   0.410000    -91.470000   
 4.100000   0.654467   -138.077406   4.114671     69.607463   0.122996      7.392189   0.402254    -93.501047   
 4.200000   0.649068   -141.344389   4.060675     67.293671   0.123968      5.774640   0.394695    -95.501024   
 4.300000   0.643795   -144.590783   4.007950     65.014830   0.124917      4.188576   0.387313    -97.466452   
 4.400000   0.638644   -147.797145   3.956438     62.776566   0.125844      2.635018   0.380101    -99.394249   
 4.500000   0.633608   -150.945439   3.906082     60.583865   0.126751      1.114794   0.373052   -101.281745   
 4.600000   0.628683   -154.019596   3.856834     58.441029   0.127637     -0.371459   0.366157   -103.126689   
 4.700000   0.623864   -157.005920   3.808645     56.351658   0.128504     -1.823282   0.359410   -104.927241   
 4.800000   0.619147   -159.893306   3.761470     54.318653   0.129354     -3.240381   0.352806   -106.681960   
 4.900000   0.614527   -162.673298   3.715268     52.344238   0.130185     -4.622619   0.346338   -108.389782   
 5.000000   0.610000   -165.340000   3.670000     50.430000   0.131000     -5.970000   0.340000   -110.050000   
 5.100000   0.606742   -168.374007   3.625468     48.272942   0.131543     -7.499167   0.332397   -112.107083   
 5.200000   0.603546   -171.413163   3.581801     46.135578   0.132076     -9.006409   0.324942   -114.143407   
 5.300000   0.600412   -174.441000   3.538966     44.023094   0.132598    -10.490432   0.317628   -116.154606   
 5.400000   0.597336   -177.441398   3.496932     41.940314   0.133111    -11.950087   0.310452   -118.136645   
 5.500000   0.594317    179.600907   3.455669     39.891637   0.133614    -13.384372   0.303407   -120.085860   
 5.600000   0.591352    176.699877   3.415149     37.880996   0.134108    -14.792428   0.296489   -121.998986   
 5.700000   0.588440    173.867831   3.375347     35.911831   0.134593    -16.173536   0.289693   -123.873176   
 5.800000   0.585578    171.115208   3.336237     33.987075   0.135070    -17.527115   0.283016   -125.706008   
 5.900000   0.582766    168.450450   3.297795     32.109155   0.135539    -18.852712   0.276453   -127.495480   
 6.000000   0.580000    165.880000   3.260000     30.280000   0.136000    -20.150000   0.270000   -129.240000   
 6.100000   0.578928    162.875376   3.222470     28.207098   0.136322    -21.608154   0.263566   -131.481928   
 6.200000   0.577873    159.856043   3.185551     26.147830   0.136638    -23.049468   0.257237   -133.712944   
 6.300000   0.576835    156.838295   3.149222     24.107047   0.136950    -24.472627   0.251009   -135.926723   
 6.400000   0.575813    153.838386   3.113465     22.089341   0.137256    -25.876430   0.244880   -138.117228   
 6.500000   0.574808    150.872007   3.078263     20.098987   0.137558    -27.259789   0.238845   -140.278805   
 6.600000   0.573817    147.953810   3.043598     18.139895   0.137855    -28.621733   0.232902   -142.406260   
 6.700000   0.572842    145.097003   3.009454     16.215577   0.138148    -29.961409   0.227049   -144.494921   
 6.800000   0.571880    142.313061   2.975816     14.329124   0.138436    -31.278078   0.221283   -146.540680   
 6.900000   0.570933    139.611538   2.942670     12.483190   0.138720    -32.571114   0.215601   -148.540016   
 7.000000   0.570000    137.000000   2.910000     10.680000   0.139000    -33.840000   0.210000   -150.490000   
 7.100000   0.571062    134.283252   2.878132      8.711242   0.139000    -35.083053   0.205751   -153.014790   
 7.200000   0.572110    131.557400   2.846710      6.752606   0.139000    -36.313024   0.201561   -155.541753   
 7.300000   0.573143    128.834477   2.815721      4.808359   0.139000    -37.529120   0.197429   -158.061333   
 7.400000   0.574162    126.126448   2.785153      2.882578   0.139000    -38.730613   0.193354   -160.564135   
 7.500000   0.575167    123.444889   2.754996      0.979107   0.139000    -39.916836   0.189333   -163.041131   
 7.600000   0.576159    120.800707   2.725239     -0.898486   0.139000    -41.087186   0.185365   -165.483854   
 7.700000   0.577138    118.203885   2.695870     -2.746945   0.139000    -42.241124   0.181449   -167.884551   
 7.800000   0.578104    115.663294   2.666881     -4.563342   0.139000    -43.378172   0.177584   -170.236308   
 7.900000   0.579058    113.186561   2.638260     -6.345101   0.139000    -44.497915   0.173768   -172.533133   
 8.000000   0.580000    110.780000   2.610000     -8.090000   0.139000    -45.600000   0.170000   -174.770000   
 8.100000   0.583164    108.298070   2.579414     -9.995898   0.138895    -46.864293   0.165781   -177.947541   
 8.200000   0.586289    105.810609   2.549203    -11.894365   0.138790    -48.117655   0.161614    178.835733   
 8.300000   0.589377    103.326786   2.519358    -13.781453   0.138687    -49.359138   0.157498    175.599375   
 8.400000   0.592427    100.855691   2.489871    -15.653351   0.138586    -50.587850   0.153430    172.363678   
 8.500000   0.595441     98.406142   2.460733    -17.506433   0.138485    -51.802964   0.149411    169.148914   
 8.600000   0.598420     95.986497   2.431935    -19.337298   0.138386    -53.003713   0.145439    165.974581   
 8.700000   0.601365     93.604495   2.403471    -21.142802   0.138288    -54.189394   0.141513    162.858722   
 8.800000   0.604276     91.267127   2.375332    -22.920078   0.138191    -55.359372   0.137632    159.817361   
 8.900000   0.607154     88.980545   2.347510    -24.666563   0.138095    -56.513077   0.133795    156.864120   
 9.000000   0.610000     86.750000   2.320000    -26.380000   0.138000    -57.650000   0.130000    154.010000   
 9.100000   0.614195     84.632506   2.296927    -28.197169   0.138000    -58.754095   0.127902    150.425907   
 9.200000   0.618344     82.515910   2.274107    -30.008400   0.138000    -59.849194   0.125828    146.764654   
 9.300000   0.622449     80.405843   2.251533    -31.810234   0.138000    -60.934682   0.123776    143.054135   
 9.400000   0.626509     78.307833   2.229200    -33.599319   0.138000    -62.009978   0.121745    139.324627   
 9.500000   0.630527     76.227224   2.207104    -35.372446   0.138000    -63.074539   0.119737    135.607350   
 9.600000   0.634502     74.169091   2.185239    -37.126579   0.138000    -64.127860   0.117749    131.932921   
 9.700000   0.638436     72.138174   2.163601    -38.858886   0.138000    -65.169475   0.115782    128.329880   
 9.800000   0.642330     70.138821   2.142185    -40.566760   0.138000    -66.198957   0.113835    124.823451   
 9.900000   0.646184     68.174946   2.120986    -42.247836   0.138000    -67.215915   0.111908    121.434684   
10.000000   0.650000     66.250000   2.100000    -43.900000   0.138000    -68.220000   0.110000    118.180000   
10.100000   0.654176     64.255097   2.078076    -45.764325   0.137896    -69.371636   0.113132    114.260555   
10.200000   0.658311     62.261183   2.056368    -47.625452   0.137792    -70.515439   0.116233    110.222307   
10.300000   0.662405     60.272977   2.034872    -49.479569   0.137690    -71.650643   0.119304    106.101156   
10.400000   0.666460     58.295117   2.013584    -51.322952   0.137588    -72.776516   0.122345    101.937852   
10.500000   0.670476     56.332096   1.992499    -53.152001   0.137488    -73.892367   0.125357     97.775728   
10.600000   0.674454     54.388207   1.971614    -54.963289   0.137389    -74.997545   0.128341     93.658047   
10.700000   0.678395     52.467486   1.950926    -56.753592   0.137290    -76.091441   0.131296     89.625361   
10.800000   0.682299     50.573669   1.930429    -58.519920   0.137193    -77.173488   0.134224     85.713272   
10.900000   0.686167     48.710159   1.910122    -60.259542   0.137096    -78.243167   0.137125     81.950873   
11.000000   0.690000     46.880000   1.890000    -61.970000   0.137000    -79.300000   0.140000     78.360000   
11.100000   0.693120     44.917584   1.869199    -63.813243   0.136792    -80.497562   0.145200     75.455163   
11.200000   0.696212     42.954910   1.848584    -65.654699   0.136586    -81.688362   0.150354     72.516079   
11.300000   0.699277     40.996493   1.828152    -67.490651   0.136382    -82.871485   0.155462     69.557680   
11.400000   0.702315     39.046796   1.807900    -69.317451   0.136179    -84.046054   0.160525     66.595505   
11.500000   0.705326     37.110158   1.787825    -71.131559   0.135978    -85.211230   0.165544     63.645213   
11.600000   0.708311     35.190749   1.767924    -72.929581   0.135779    -86.366217   0.170519     60.722092   
11.700000   0.711271     33.292510   1.748194    -74.708310   0.135582    -87.510265   0.175451     57.840593   
11.800000   0.714205     31.419115   1.728632    -76.464750   0.135386    -88.642673   0.180342     55.013929   
11.900000   0.717115     29.573932   1.709235    -78.196146   0.135192    -89.762785   0.185191     52.253764   
12.000000   0.720000     27.760000   1.690000    -79.900000   0.135000    -90.870000   0.190000     49.570000   
12.100000   0.722074     25.801809   1.669264    -81.672279   0.134378    -92.038228   0.197258     47.564067   
12.200000   0.724130     23.841900   1.648699    -83.443117   0.133761    -93.200551   0.204455     45.555442   
12.300000   0.726170     21.884786   1.628301    -85.209202   0.133149    -94.356105   0.211595     43.548987   
12.400000   0.728193     19.934943   1.608069    -86.967276   0.132542    -95.504054   0.218676     41.549531   
12.500000   0.730200     17.996749   1.587999    -88.714168   0.131940    -96.643600   0.225700     39.561808   
12.600000   0.732191     16.074424   1.568090    -90.446829   0.131343    -97.773979   0.232669     37.590382   
12.700000   0.734166     14.171980   1.548337    -92.162362   0.130750    -98.894468   0.239582     35.639592   
12.800000   0.736126     12.293172   1.528740    -93.858046   0.130162   -100.004386   0.246441     33.713498   
12.900000   0.738071     10.441465   1.509295    -95.531360   0.129579   -101.103095   0.253247     31.815840   
13.000000   0.740000      8.620000   1.490000    -97.180000   0.129000   -102.190000   0.260000     29.950000   
13.100000   0.743102      7.192750   1.471388    -98.792974   0.128380   -103.077903   0.267238     27.862456   
13.200000   0.746180      5.769520   1.452917   -100.403591   0.127764   -103.960683   0.274421     25.768986   
13.300000   0.749236      4.352000   1.434586   -102.009366   0.127153   -104.837993   0.281550     23.675101   
13.400000   0.752268      2.941838   1.416392   -103.607860   0.126546   -105.709501   0.288625     21.586323   
13.500000   0.755278      1.540632   1.398333   -105.196698   0.125944   -106.574891   0.295648     19.508091   
13.600000   0.758265      0.149915   1.380407   -106.773592   0.125347   -107.433858   0.302619     17.445682   
13.700000   0.761231     -1.228847   1.362613   -108.336362   0.124754   -108.286117   0.309539     15.404133   
13.800000   0.764175     -2.594271   1.344949   -109.882946   0.124165   -109.131395   0.316409     13.388166   
13.900000   0.767098     -3.945058   1.327411   -111.411418   0.123580   -109.969435   0.323229     11.402141   
14.000000   0.770000     -5.280000   1.310000   -112.920000   0.123000   -110.800000   0.330000      9.450000   
14.100000   0.775158     -6.384363   1.294526   -114.529232   0.122484   -111.755389   0.336190      7.671631   
14.200000   0.780280     -7.484078   1.279161   -116.136967   0.121972   -112.706064   0.342336      5.892437   
14.300000   0.785366     -8.578396   1.263903   -117.740724   0.121463   -113.651565   0.348439      4.115799   
14.400000   0.790416     -9.666591   1.248753   -119.338056   0.120958   -114.591446   0.354499      2.345072   
14.500000   0.795431    -10.747964   1.233707   -120.926576   0.120457   -115.525278   0.360517      0.583542   
14.600000   0.800412    -11.821840   1.218764   -122.503976   0.119959   -116.452651   0.366494     -1.165605   
14.700000   0.805359    -12.887577   1.203923   -124.068047   0.119464   -117.373173   0.372431     -2.899320   
14.800000   0.810272    -13.944563   1.189183   -125.616694   0.118973   -118.286470   0.378327     -4.614719   
14.900000   0.815152    -14.992219   1.174543   -127.147952   0.118485   -119.192190   0.384183     -6.309107   
15.000000   0.820000    -16.030000   1.160000   -128.660000   0.118000   -120.090000   0.390000     -7.980000   
15.100000   0.820000    -17.288400   1.145586   -130.313029   0.117691   -121.098507   0.396177     -9.443374   
15.200000   0.820000    -18.543191   1.131268   -131.965901   0.117384   -122.102765   0.402314    -10.904512   
15.300000   0.820000    -19.793221   1.117043   -133.615903   0.117079   -123.102209   0.408410    -12.361557   
15.400000   0.820000    -21.037360   1.102911   -135.260355   0.116777   -124.096291   0.414467    -13.812683   
15.500000   0.820000    -22.274512   1.088871   -136.896627   0.116476   -125.084483   0.420484    -15.256109   
15.600000   0.820000    -23.503618   1.074921   -138.522170   0.116177   -126.066274   0.426463    -16.690110   
15.700000   0.820000    -24.723664   1.061060   -140.134534   0.115880   -127.041176   0.432403    -18.113031   
15.800000   0.820000    -25.933678   1.047286   -141.731393   0.115585   -128.008722   0.438306    -19.523296   
15.900000   0.820000    -27.132745   1.033600   -143.310560   0.115291   -128.968470   0.444171    -20.919417   
16.000000   0.820000    -28.320000   1.020000   -144.870000   0.115000   -129.920000   0.450000    -22.300000   
16.100000   0.822055    -29.557969   1.008695   -146.360909   0.115000   -130.911465   0.456166    -23.316890   
16.200000   0.824098    -30.792758   0.997460   -147.850465   0.115000   -131.899084   0.462295    -24.329958   
16.300000   0.826128    -32.023259   0.986294   -149.336689   0.115000   -132.882314   0.468385    -25.338616   
16.400000   0.828146    -33.248391   0.975197   -150.817631   0.115000   -133.860630   0.474438    -26.342291   
16.500000   0.830152    -34.467100   0.964167   -152.291379   0.115000   -134.833519   0.480455    -27.340428   
16.600000   0.832145    -35.678364   0.953203   -153.756081   0.115000   -135.800490   0.486435    -28.332489   
16.700000   0.834126    -36.881201   0.942305   -155.209951   0.115000   -136.761066   0.492379    -29.317959   
16.800000   0.836096    -38.074674   0.931473   -156.651285   0.115000   -137.714795   0.498287    -30.296344   
16.900000   0.838054    -39.257888   0.920705   -158.078472   0.115000   -138.661243   0.504161    -31.267173   
17.000000   0.840000    -40.430000   0.910000   -159.490000   0.115000   -139.600000   0.510000    -32.230000   
17.100000   0.842052    -42.027617   0.898713   -161.086619   0.114282   -140.578736   0.516157    -33.475114   
17.200000   0.844092    -43.625664   0.887491   -162.683654   0.113568   -141.553977   0.522277    -34.717542   
17.300000   0.846121    -45.221685   0.876335   -164.278656   0.112858   -142.525195   0.528363    -35.956151   
17.400000   0.848138    -46.813242   0.865243   -165.869190   0.112152   -143.491878   0.534413    -37.189827   
17.500000   0.850143    -48.397938   0.854214   -167.452865   0.111450   -144.453526   0.540429    -38.417485   
17.600000   0.852137    -49.973437   0.843248   -169.027350   0.110752   -145.409657   0.546410    -39.638071   
17.700000   0.854119    -51.537487   0.832345   -170.590395   0.110058   -146.359807   0.552357    -40.850566   
17.800000   0.856090    -53.087934   0.821503   -172.139853   0.109368   -147.303528   0.558271    -42.053997   
