FREQ	T1:Mag[S(11)]	T1:Ang[S(11)]	T1:Mag[S(21)]	T1:Ang[S(21)]	T1:Mag[S(12)]	T1:Ang[S(12)]	T1:Mag[S(22)]	T1:Ang[S(22)]
 1.00000000000000E+007	 9.99414730956871E-001	-3.60213851340301E-001	 6.31503292564861E+000	 1.79694030942664E+002	 4.85943564326311E-004	 8.88659258392570E+001	 6.50447232350139E-001	-2.62553128289023E-001
 2.00000000000000E+007	 9.99401016272049E-001	-7.20426858470417E-001	 6.31495878410693E+000	 1.79388063911624E+002	 9.71788267226115E-004	 8.90574873896930E+001	 6.50435770974413E-001	-5.25104767236996E-001
 3.00000000000000E+007	 9.99378159109780E-001	-1.08063816495913E+000	 6.31483521793040E+000	 1.79082100940103E+002	 1.45762790264838E-003	 8.89544912114839E+001	 6.50416669163805E-001	-7.87653416798041E-001
 4.00000000000000E+007	 9.99346160705954E-001	-1.44084690173506E+000	 6.31466223267551E+000	 1.78776144068378E+002	 1.94343580200112E-003	 8.87778500164858E+001	 6.50389927795966E-001	-1.05019756587444E+000
 5.00000000000000E+007	 9.99305023035384E-001	-1.80105219386010E+000	 6.31443983699761E+000	 1.78470195339874E+002	 2.42919684250189E-003	 8.85717548111666E+001	 6.50355548238888E-001	-1.31273569832876E+000
 6.00000000000000E+007	 9.99254748795603E-001	-2.16125316615706E+000	 6.31416804260138E+000	 1.78164256797905E+002	 2.91489783100466E-003	 8.83509381648203E+001	 6.50313532344007E-001	-1.57526629803439E+000
 7.00000000000000E+007	 9.99195341360436E-001	-2.52144894559321E+000	 6.31384686406541E+000	 1.77858330484206E+002	 3.40052613472395E-003	 8.81217154418366E+001	 6.50263882416891E-001	-1.83778785101445E+000
 8.00000000000000E+007	 9.99126804743492E-001	-2.88163866128264E+000	 6.31347631871494E+000	 1.77552418438903E+002	 3.88606933830602E-003	 8.78872454079873E+001	 6.50206601197861E-001	-2.10029884551465E+000
 9.00000000000000E+007	 9.99049143580234E-001	-3.24182144405202E+000	 6.31305642655503E+000	 1.77246522700672E+002	 4.37151512850696E-003	 8.76492838443702E+001	 6.50141691851306E-001	-2.36279777164935E+000
 1.00000000000000E+008	 9.98962363122817E-001	-3.60199642592408E+000	 6.31258721025472E+000	 1.76940645306961E+002	 4.85685124774536E-003	 8.74088850236987E+001	 6.50069157962918E-001	-2.62528312104329E+000
 1.10000000000000E+008	 9.98866469238802E-001	-3.96216273987911E+000	 6.31206869513679E+000	 1.76634788294064E+002	 5.34206547317844E-003	 8.71667205750657E+001	 6.49989003537708E-001	-2.88775338660898E+000
 1.20000000000000E+008	 9.98761468411091E-001	-4.32231951956712E+000	 6.31150090918253E+000	 1.76328953697223E+002	 5.82714560668135E-003	 8.69232389205616E+001	 6.49901233001833E-001	-3.15020706243024E+000
 1.30000000000000E+008	 9.98647367741303E-001	-4.68246589942075E+000	 6.31088388303869E+000	 1.76023143550473E+002	 6.31207946997675E-003	 8.66787511266644E+001	 6.49805851202435E-001	-3.41264264387251E+000
 1.40000000000000E+008	 9.98524174949464E-001	-5.04260101467879E+000	 6.31021765001909E+000	 1.75717359886590E+002	 6.79685490238421E-003	 8.64334799622078E+001	 6.49702863409000E-001	-3.67505862761492E+000
 1.50000000000000E+008	 9.98391898375915E-001	-5.40272400146498E+000	 6.30950224610831E+000	 1.75411604736933E+002	 7.28145975999002E-003	 8.61875893326909E+001	 6.49592275313282E-001	-3.93745351189415E+000
 1.60000000000000E+008	 9.98250546981556E-001	-5.76283399695357E+000	 6.30873770996262E+000	 1.75105880131309E+002	 7.76588191561747E-003	 8.59412026762643E+001	 6.49474093029677E-001	-4.19982579660955E+000
 1.70000000000000E+008	 9.98100130347307E-001	-6.12293013953374E+000	 6.30792408290631E+000	 1.74800188097814E+002	 8.25010925926185E-003	 8.56944148665523E+001	 6.49348323094846E-001	-4.46217398350497E+000
 1.80000000000000E+008	 9.97940658674430E-001	-6.48301156888639E+000	 6.30706140893294E+000	 1.74494530662681E+002	 8.73412969881334E-003	 8.54473001474862E+001	 6.49214972467712E-001	-4.72449657645329E+000
 1.90000000000000E+008	 9.97772142783261E-001	-6.84307742626922E+000	 6.30614973469747E+000	 1.74188909850098E+002	 9.21793116093972E-003	 8.51999175620555E+001	 6.49074048528288E-001	-4.98679208153615E+000
 2.00000000000000E+008	 9.97594594111758E-001	-7.20312685458481E+000	 6.30518910951107E+000	 1.73883327682048E+002	 9.70150159207485E-003	 8.49523147521750E+001	 6.48925559077177E-001	-5.24905900736411E+000
 2.10000000000000E+008	 9.97408024714706E-001	-7.56315899856623E+000	 6.30417958533647E+000	 1.73577786178165E+002	 1.01848289594691E-002	 8.47045306726752E+001	 6.48769512334561E-001	-5.51129586519674E+000
 2.20000000000000E+008	 9.97212447261901E-001	-7.92317300494700E+000	 6.30312121677895E+000	 1.73272287355570E+002	 1.06679012522673E-002	 8.44565975649239E+001	 6.48605916938824E-001	-5.77350116912736E+000
 2.30000000000000E+008	 9.97007875035687E-001	-8.28316802259403E+000	 6.30201406107655E+000	 1.72966833228696E+002	 1.11507064826004E-002	 8.42085424154358E+001	 6.48434781945395E-001	-6.03567343634666E+000
 2.40000000000000E+008	 9.96794321929626E-001	-8.64314320264178E+000	 6.30085817809261E+000	 1.72661425809179E+002	 1.16332326866862E-002	 8.39603880497826E+001	 6.48256116825205E-001	-6.29781118722493E+000
 2.50000000000000E+008	 9.96571802445875E-001	-9.00309769863435E+000	 6.29965363030453E+000	 1.72356067105677E+002	 1.21154679259210E-002	 8.37121539638142E+001	 6.48069931463188E-001	-6.55991294557473E+000
 2.60000000000000E+008	 9.96340331692843E-001	-9.36303066668829E+000	 6.29840048279536E+000	 1.72050759123720E+002	 1.25974002879689E-002	 8.34638569630239E+001	 6.47876236157225E-001	-6.82197723878621E+000
 2.70000000000000E+008	 9.96099925383123E-001	-9.72294126555938E+000	 6.29709880323980E+000	 1.71745503865615E+002	 1.30790178878313E-002	 8.32155116598251E+001	 6.47675041615346E-001	-7.08400259797396E+000
 2.80000000000000E+008	 9.95850599830396E-001	-1.00828286567847E+001	 6.29574866189585E+000	 1.71440303330277E+002	 1.35603088689159E-002	 8.29671308641838E+001	 6.47466358955267E-001	-7.34598755816516E+000
 2.90000000000000E+008	 9.95592371947262E-001	-1.04426920047970E+001	 6.29435013159033E+000	 1.71135159513115E+002	 1.40412614040814E-002	 8.27187258934311E+001	 6.47250199701503E-001	-7.60793065843652E+000
 3.00000000000000E+008	 9.95325259242438E-001	-1.08025304770555E+001	 6.29290328770988E+000	 1.70830074405861E+002	 1.45218636966819E-002	 8.24703068200580E+001	 6.47026575784445E-001	-7.86983044211854E+000
 3.10000000000000E+008	 9.95049279817650E-001	-1.11623432441084E+001	 6.29140820818538E+000	 1.70525049996506E+002	 1.50021039815855E-002	 8.22218826716204E+001	 6.46795499537909E-001	-8.13168545685429E+000
 3.20000000000000E+008	 9.94764452365689E-001	-1.15221294797161E+001	 6.28986497348281E+000	 1.70220088269136E+002	 1.54819705261962E-002	 8.19734615930664E+001	 6.46556983697417E-001	-8.39349425481229E+000
 3.30000000000000E+008	 9.94470796166571E-001	-1.18818883609610E+001	 6.28827366658722E+000	 1.69915191203801E+002	 1.59614516314491E-002	 8.17250509795696E+001	 6.46311041398258E-001	-8.65525539282851E+000
 3.40000000000000E+008	 9.94168331085430E-001	-1.22416190683037E+001	 6.28663437299187E+000	 1.69610360776431E+002	 1.64405356328081E-002	 8.14766575859513E+001	 6.46057686173381E-001	-8.91696743251275E+000
 3.50000000000000E+008	 9.93857077569074E-001	-1.26013207857288E+001	 6.28494718068388E+000	 1.69305598958688E+002	 1.69192109012451E-002	 8.12282876172839E+001	 6.45796931951533E-001	-9.17862894039257E+000
 3.60000000000000E+008	 9.93537056643258E-001	-1.29609927007841E+001	 6.28321218013153E+000	 1.69000907717843E+002	 1.73974658442154E-002	 8.09799468044122E+001	 6.45528793055208E-001	-9.44023848811353E+000
 3.70000000000000E+008	 9.93208289909537E-001	-1.33206340047190E+001	 6.28142946426907E+000	 1.68696289016688E+002	 1.78752889066171E-002	 8.07316404672427E+001	 6.45253284198260E-001	-9.70179465246264E+000
 3.80000000000000E+008	 9.92870799542148E-001	-1.36802438925074E+001	 6.27959912848413E+000	 1.68391744813405E+002	 1.83526685717496E-002	 8.04833735680096E+001	 6.44970420484157E-001	-9.96329601560049E+000
 3.90000000000000E+008	 9.92524608284908E-001	-1.40398215630086E+001	 6.27772127060238E+000	 1.68087277061438E+002	 1.88295933622570E-002	 8.02351507563273E+001	 6.44680217403543E-001	-1.02247411651485E+001
 4.00000000000000E+008	 9.92169739448199E-001	-1.43993662189811E+001	 6.27579599087394E+000	 1.67782887709413E+002	 1.93060518410687E-002	 7.99869764075307E+001	 6.44382690832073E-001	-1.04861286943169E+001
 4.10000000000000E+008	 9.91806216905416E-001	-1.47588770672218E+001	 6.27382339195792E+000	 1.67478578700983E+002	 1.97820326123271E-002	 7.97388546553231E+001	 6.44077857028321E-001	-1.07474572020763E+001
 4.20000000000000E+008	 9.91434065089839E-001	-1.51183533185976E+001	 6.27180357890740E+000	 1.67174351974771E+002	 2.02575243223090E-002	 7.94907894198433E+001	 6.43765732631269E-001	-1.10087252932160E+001
 4.30000000000000E+008	 9.91053308991393E-001	-1.54777941882014E+001	 6.26973665915507E+000	 1.66870209464183E+002	 2.07325156603430E-002	 7.92427844316899E+001	 6.43446334658253E-001	-1.12699315785597E+001
 4.40000000000000E+008	 9.90663974152999E-001	-1.58371988953200E+001	 6.26762274249628E+000	 1.66566153097388E+002	 2.12069953597098E-002	 7.89948432528102E+001	 6.43119680502322E-001	-1.15310746750201E+001
 4.50000000000000E+008	 9.90266086667446E-001	-1.61965666636185E+001	 6.26546194107493E+000	 1.66262184797137E+002	 2.16809521985457E-002	 7.87469692944506E+001	 6.42785787930086E-001	-1.17921532057658E+001
 4.60000000000000E+008	 9.89859673173578E-001	-1.65558967211520E+001	 6.26325436936577E+000	 1.65958306480698E+002	 2.21543750007268E-002	 7.84991658328578E+001	 6.42444675079077E-001	-1.20531658003325E+001
 4.70000000000000E+008	 9.89444760852885E-001	-1.69151883004969E+001	 6.26100014415944E+000	 1.65654520059707E+002	 2.26272526367550E-002	 7.82514360228935E+001	 6.42096360455516E-001	-1.23141110947725E+001
 4.80000000000000E+008	 9.89021377426082E-001	-1.72744406387687E+001	 6.25869938454555E+000	 1.65350827440110E+002	 2.30995740246294E-002	 7.80037829100151E+001	 6.41740862931496E-001	-1.25749877317426E+001
 4.90000000000000E+008	 9.88589551148860E-001	-1.76336529777227E+001	 6.25635221189493E+000	 1.65047230522031E+002	 2.35713281307079E-002	 7.77562094407187E+001	 6.41378201742693E-001	-1.28357943606539E+001
 5.00000000000000E+008	 9.88149310808802E-001	-1.79928245638447E+001	 6.25395874984420E+000	 1.64743731199652E+002	 2.40425039705691E-002	 7.75087184717230E+001	 6.41008396485672E-001	-1.30965296378128E+001
 5.10000000000000E+008	 9.87700685721341E-001	-1.83519546484065E+001	 6.25151912427753E+000	 1.64440331361147E+002	 2.45130906098562E-002	 7.72613127781147E+001	 6.40631467115202E-001	-1.33571922264737E+001
 5.20000000000000E+008	 9.87243705725772E-001	-1.87110424875281E+001	 6.24903346330896E+000	 1.64137032888542E+002	 2.49830771651150E-002	 7.70139950604733E+001	 6.40247433941720E-001	-1.36177807970706E+001
 5.30000000000000E+008	 9.86778401181667E-001	-1.90700873422748E+001	 6.24650189726525E+000	 1.63833837657635E+002	 2.54524528046262E-002	 7.67667679512424E+001	 6.39856317628496E-001	-1.38782940272334E+001
 5.40000000000000E+008	 9.86304802964648E-001	-1.94290884787130E+001	 6.24392455866700E+000	 1.63530747537880E+002	 2.59212067492218E-002	 7.65196340203373E+001	 6.39458139188964E-001	-1.41387306019801E+001
 5.50000000000000E+008	 9.85822942462586E-001	-1.97880451679646E+001	 6.24130158221094E+000	 1.63227764392306E+002	 2.63893282730989E-002	 7.62725957801751E+001	 6.39052919983861E-001	-1.43990892137926E+001
 5.60000000000000E+008	 9.85332851571427E-001	-2.01469566863098E+001	 6.23863310475134E+000	 1.62924890077382E+002	 2.68568067046205E-002	 7.60256556900982E+001	 6.38640681718579E-001	-1.46593685627845E+001
 5.70000000000000E+008	 9.84834562691180E-001	-2.05058223152215E+001	 6.23591926528080E+000	 1.62622126442963E+002	 2.73236314271057E-002	 7.57788161603980E+001	 6.38221446440040E-001	-1.49195673567551E+001
 5.80000000000000E+008	 9.84328108721688E-001	-2.08646413414453E+001	 6.23316020491185E+000	 1.62319475332150E+002	 2.77897918796140E-002	 7.55320795558396E+001	 6.37795236534082E-001	-1.51796843113781E+001
 5.90000000000001E+008	 9.83813523058415E-001	-2.12234130570668E+001	 6.23035606685699E+000	 1.62016938581222E+002	 2.82552775577140E-002	 7.52854481988775E+001	 6.37362074722315E-001	-1.54397181502539E+001
 6.00000000000001E+008	 9.83290839588189E-001	-2.15821367595524E+001	 6.22750699640977E+000	 1.61714518019524E+002	 2.87200780142477E-002	 7.50389243725031E+001	 6.36921984059318E-001	-1.56996676050901E+001
 6.10000000000001E+008	 9.82760092684918E-001	-2.19408117518490E+001	 6.22461314092464E+000	 1.61412215469384E+002	 2.91841828600804E-002	 7.47925103228309E+001	 6.36474987929492E-001	-1.59595314157370E+001
 6.20000000000001E+008	 9.82221317205309E-001	-2.22994373424189E+001	 6.22167464979755E+000	 1.61110032745997E+002	 2.96475817648431E-002	 7.45462082613911E+001	 6.36021110044128E-001	-1.62193083303924E+001
 6.30000000000001E+008	 9.81674548484220E-001	-2.26580128452928E+001	 6.21869167444522E+000	 1.60807971657361E+002	 3.01102644576616E-002	 7.43000203672501E+001	 6.35560374438349E-001	-1.64789971056427E+001
 6.40000000000001E+008	 9.81119822330428E-001	-2.30165375801445E+001	 6.21566436828515E+000	 1.60506034004166E+002	 3.05722207278771E-002	 7.40539487888715E+001	 6.35092805467942E-001	-1.67385965066114E+001
 6.50000000000001E+008	 9.80557175022033E-001	-2.33750108723526E+001	 6.21259288671490E+000	 1.60204221579696E+002	 3.10334404257547E-002	 7.38079956458177E+001	 6.34618427806276E-001	-1.69981053070682E+001
 6.60000000000001E+008	 9.79986643301869E-001	-2.37334320530223E+001	 6.20947738709136E+000	 1.59902536169769E+002	 3.14939134631822E-002	 7.35621630303149E+001	 6.34137266441155E-001	-1.72575222895232E+001
 6.70000000000001E+008	 9.79408264372983E-001	-2.40918004590763E+001	 6.20631802870977E+000	 1.59600979552620E+002	 3.19536298143568E-002	 7.33164530086273E+001	 6.33649346671583E-001	-1.75168462453430E+001
 6.80000000000001E+008	 9.78822075893975E-001	-2.44501154332931E+001	 6.20311497278249E+000	 1.59299553498814E+002	 3.24125795164604E-002	 7.30708676223202E+001	 6.33154694104557E-001	-1.77760759748868E+001
 6.90000000000001E+008	 9.78228115974294E-001	-2.48083763243533E+001	 6.19986838241788E+000	 1.58998259771184E+002	 3.28707526703265E-002	 7.28254088894361E+001	 6.32653334651846E-001	-1.80352102875522E+001
 7.00000000000001E+008	 9.77626423169541E-001	-2.51665824868901E+001	 6.19657842259857E+000	 1.58697100124718E+002	 3.33281394410917E-002	 7.25800788055109E+001	 6.32145294526705E-001	-1.82942480019535E+001
 7.10000000000001E+008	 9.77017036476685E-001	-2.55247332815351E+001	 6.19324526015977E+000	 1.58396076306495E+002	 3.37847300588384E-002	 7.23348793445480E+001	 6.31630600240520E-001	-1.85531879459694E+001
 7.20000000000001E+008	 9.76399995329243E-001	-2.58828280749872E+001	 6.18986906376733E+000	 1.58095190055578E+002	 3.42405148192252E-002	 7.20898124598568E+001	 6.31109278599565E-001	-1.88120289568866E+001
 7.30000000000001E+008	 9.75775339592522E-001	-2.62408662400235E+001	 6.18645000389612E+000	 1.57794443102963E+002	 3.46954840841075E-002	 7.18448800848721E+001	 6.30581356701584E-001	-1.90707698814686E+001
 7.40000000000000E+008	 9.75143109558610E-001	-2.65988471555596E+001	 6.18298825280728E+000	 1.57493837171475E+002	 3.51496282821430E-002	 7.16000841338521E+001	 6.30046861932452E-001	-1.93294095760894E+001
 7.50000000000000E+008	 9.74503345941583E-001	-2.69567702067097E+001	 6.17948398452583E+000	 1.57193373975686E+002	 3.56029379093862E-002	 7.13554265025329E+001	 6.29505821962652E-001	-1.95879469068167E+001
 7.60000000000000E+008	 9.73856089872465E-001	-2.73146347847752E+001	 6.17593737481899E+000	 1.56893055221865E+002	 3.60554035298774E-002	 7.11109090687540E+001	 6.28958264744076E-001	-1.98463807495082E+001
 7.70000000000000E+008	 9.73201382894337E-001	-2.76724402873418E+001	 6.17234860117262E+000	 1.56592882607867E+002	 3.65070157762099E-002	 7.08665336929724E+001	 6.28404218506345E-001	-2.01047099899245E+001
 7.80000000000000E+008	 9.72539266957174E-001	-2.80301861182818E+001	 6.16871784276867E+000	 1.56292857823072E+002	 3.69577653500911E-002	 7.06223022187820E+001	 6.27843711753469E-001	-2.03629335238219E+001
 7.90000000000000E+008	 9.71869784412996E-001	-2.83878716877900E+001	 6.16504528046273E+000	 1.55992982548319E+002	 3.74076430228940E-002	 7.03782164733760E+001	 6.27276773260318E-001	-2.06210502570370E+001
 8.00000000000000E+008	 9.71192978010625E-001	-2.87454964124476E+001	 6.16133109676019E+000	 1.55693258455813E+002	 3.78566396361883E-002	 7.01342782679496E+001	 6.26703432069063E-001	-2.08790591055865E+001
 8.10000000000000E+008	 9.70508890890635E-001	-2.91030597152121E+001	 6.15757547579380E+000	 1.55393687209064E+002	 3.83047461022695E-002	 6.98904893980953E+001	 6.26123717485771E-001	-2.11369589957866E+001
 8.20000000000000E+008	 9.69817566580233E-001	-2.94605610254794E+001	 6.15377860329980E+000	 1.55094270462818E+002	 3.87519534046673E-002	 6.96468516441576E+001	 6.25537659076685E-001	-2.13947488642992E+001
 8.30000000000000E+008	 9.69119048988061E-001	-2.98179997790904E+001	 6.14994066659497E+000	 1.54795009862986E+002	 3.91982525986483E-002	 6.94033667715515E+001	 6.24945286664807E-001	-2.16524276582595E+001
 8.40000000000000E+008	 9.68413382399001E-001	-3.01753754183882E+001	 6.14606185455278E+000	 1.54495907046559E+002	 3.96436348117021E-002	 6.91600365310438E+001	 6.24346630326269E-001	-2.19099943353678E+001
 8.50000000000000E+008	 9.67700611469044E-001	-3.05326873922009E+001	 6.14214235757999E+000	 1.54196963641573E+002	 4.00880912440182E-002	 6.89168626590587E+001	 6.23741720386628E-001	-2.21674478639443E+001
 8.60000000000000E+008	 9.66980781219937E-001	-3.08899351559128E+001	 6.13818236759283E+000	 1.53898181267011E+002	 4.05316131689484E-002	 6.86738468778902E+001	 6.23130587417422E-001	-2.24247872230493E+001
 8.70000000000000E+008	 9.66253937033970E-001	-3.12471181714410E+001	 6.13418207799325E+000	 1.53599561532759E+002	 4.09741919334593E-002	 6.84309908959554E+001	 6.22513262232438E-001	-2.26820114025655E+001
 8.80000000000000E+008	 9.65520124648761E-001	-3.16042359072945E+001	 6.13014168364509E+000	 1.53301106039530E+002	 4.14158189585706E-002	 6.81882964079913E+001	 6.21889775884061E-001	-2.29391194032658E+001
 8.90000000000000E+008	 9.64779390151824E-001	-3.19612878385745E+001	 6.12606138084985E+000	 1.53002816378808E+002	 4.18564857397810E-002	 6.79457650952486E+001	 6.21260159659664E-001	-2.31961102369186E+001
 9.00000000000000E+008	 9.64031779975339E-001	-3.23182734469803E+001	 6.12194136732318E+000	 1.52704694132790E+002	 4.22961838474856E-002	 6.77033986256782E+001	 6.20624445077956E-001	-2.34529829263597E+001
 9.10000000000000E+008	 9.63277340890790E-001	-3.26751922208527E+001	 6.11778184217018E+000	 1.52406740874315E+002	 4.27349049273749E-002	 6.74611986540791E+001	 6.19982663885227E-001	-2.37097365055757E+001
 9.20000000000000E+008	 9.62516120003634E-001	-3.30320436551678E+001	 6.11358300586169E+000	 1.52108958166815E+002	 4.31726407008269E-002	 6.72191668222558E+001	 6.19334848051720E-001	-2.39663700197876E+001
 9.30000000000000E+008	 9.61748164747798E-001	-3.33888272515386E+001	 6.10934506020972E+000	 1.51811347564261E+002	 4.36093829652836E-002	 6.69773047591605E+001	 6.18681029767945E-001	-2.42228825255319E+001
 9.40000000000000E+008	 9.60973522880495E-001	-3.37455425182614E+001	 6.10506820834343E+000	 1.51513910611095E+002	 4.40451235946171E-002	 6.67356140810058E+001	 6.18021241440902E-001	-2.44792730907246E+001
 9.50000000000000E+008	 9.60192242476704E-001	-3.41021889702937E+001	 6.10075265468475E+000	 1.51216648842181E+002	 4.44798545394835E-002	 6.64940963913861E+001	 6.17355515690445E-001	-2.47355407947616E+001
 9.59999999999999E+008	 9.59404371923701E-001	-3.44587661292618E+001	 6.09639860492384E+000	 1.50919563782760E+002	 4.49135678276620E-002	 6.62527532813931E+001	 6.16683885345515E-001	-2.49916847285726E+001
