!atf35143 Model1
!2V 10mA
# ghz s ma r 50
 0.01	 9.99414730956871E-001	-3.60213851340301E-001	 6.31503292564861E+000	 1.79694030942664E+002	 4.85943564326311E-004	 8.88659258392570E+001	 6.50447232350139E-001	-2.62553128289023E-001
 0.02	 9.99401016272049E-001	-7.20426858470417E-001	 6.31495878410693E+000	 1.79388063911624E+002	 9.71788267226115E-004	 8.90574873896930E+001	 6.50435770974413E-001	-5.25104767236996E-001
 0.03	 9.99378159109780E-001	-1.08063816495913E+000	 6.31483521793040E+000	 1.79082100940103E+002	 1.45762790264838E-003	 8.89544912114839E+001	 6.50416669163805E-001	-7.87653416798041E-001
 0.04	 9.99346160705954E-001	-1.44084690173506E+000	 6.31466223267551E+000	 1.78776144068378E+002	 1.94343580200112E-003	 8.87778500164858E+001	 6.50389927795966E-001	-1.05019756587444E+000
 0.05	 9.99305023035384E-001	-1.80105219386010E+000	 6.31443983699761E+000	 1.78470195339874E+002	 2.42919684250189E-003	 8.85717548111666E+001	 6.50355548238888E-001	-1.31273569832876E+000
 0.06	 9.99254748795603E-001	-2.16125316615706E+000	 6.31416804260138E+000	 1.78164256797905E+002	 2.91489783100466E-003	 8.83509381648203E+001	 6.50313532344007E-001	-1.57526629803439E+000
 0.07	 9.99195341360436E-001	-2.52144894559321E+000	 6.31384686406541E+000	 1.77858330484206E+002	 3.40052613472395E-003	 8.81217154418366E+001	 6.50263882416891E-001	-1.83778785101445E+000
 0.08	 9.99126804743492E-001	-2.88163866128264E+000	 6.31347631871494E+000	 1.77552418438903E+002	 3.88606933830602E-003	 8.78872454079873E+001	 6.50206601197861E-001	-2.10029884551465E+000
 0.09	 9.99049143580234E-001	-3.24182144405202E+000	 6.31305642655503E+000	 1.77246522700672E+002	 4.37151512850696E-003	 8.76492838443702E+001	 6.50141691851306E-001	-2.36279777164935E+000
 0.10	 9.98962363122817E-001	-3.60199642592408E+000	 6.31258721025472E+000	 1.76940645306961E+002	 4.85685124774536E-003	 8.74088850236987E+001	 6.50069157962918E-001	-2.62528312104329E+000
 0.15	 9.98391898375995E-001	-5.40272400147514E+000	 6.30950224610855E+000	 1.75411604736927E+002	 7.28145975999028E-003	 8.61875893326848E+001	 6.49592275313281E-001	-3.93745351189688E+000
 0.20	 9.97594594111758E-001	-7.20312685458481E+000	 6.30518910951107E+000	 1.73883327682048E+002	 9.70150159207485E-003	 8.49523147521745E+001	 6.48925559077177E-001	-5.24905900736544E+000
 0.25	 9.96571802445875E-001	-9.00309769863435E+000	 6.29965363030453E+000	 1.72356067105677E+002	 1.21154679259210E-002	 8.37121539638142E+001	 6.48069931463188E-001	-6.55991294557473E+000
 0.30	 9.95325259242380E-001	-1.08025304770555E+001	 6.29290328770970E+000	 1.70830074405861E+002	 1.45218636966815E-002	 8.24703068200582E+001	 6.47026575784446E-001	-7.86983044211842E+000
 0.35	 9.93857077569095E-001	-1.26013207857320E+001	 6.28494718068405E+000	 1.69305598958683E+002	 1.69192109012456E-002	 8.12282876172791E+001	 6.45796931951564E-001	-9.17862894040050E+000
 0.40	 9.92169739448194E-001	-1.43993662189824E+001	 6.27579599087392E+000	 1.67782887709410E+002	 1.93060518410686E-002	 7.99869764075283E+001	 6.44382690832075E-001	-1.04861286943216E+001
 0.45	 9.90266086667425E-001	-1.61965666636172E+001	 6.26546194107476E+000	 1.66262184797139E+002	 2.16809521985451E-002	 7.87469692944529E+001	 6.42785787930057E-001	-1.17921532057619E+001
 0.50	 9.88149310808786E-001	-1.79928245638425E+001	 6.25395874984407E+000	 1.64743731199654E+002	 2.40425039705686E-002	 7.75087184717260E+001	 6.41008396485649E-001	-1.30965296378082E+001
 0.55	 9.85822942462576E-001	-1.97880451679640E+001	 6.24130158221094E+000	 1.63227764392307E+002	 2.63893282730989E-002	 7.62725957801763E+001	 6.39052919983869E-001	-1.43990892137902E+001
 0.60	 9.83290839588170E-001	-2.15821367595518E+001	 6.22750699640969E+000	 1.61714518019525E+002	 2.87200780142474E-002	 7.50389243725046E+001	 6.36921984059311E-001	-1.56996676050871E+001
 0.65	 9.80557175022038E-001	-2.33750108723495E+001	 6.21259288671497E+000	 1.60204221579698E+002	 3.10334404257550E-002	 7.38079956458195E+001	 6.34618427806286E-001	-1.69981053070676E+001
 0.70	 9.77626423169550E-001	-2.51665824868910E+001	 6.19657842259857E+000	 1.58697100124717E+002	 3.33281394410916E-002	 7.25800788055103E+001	 6.32145294526698E-001	-1.82942480019539E+001
 0.75	 9.74503345941578E-001	-2.69567702067063E+001	 6.17948398452586E+000	 1.57193373975687E+002	 3.56029379093863E-002	 7.13554265025340E+001	 6.29505821962660E-001	-1.95879469068180E+001
 0.80	 9.71192978010624E-001	-2.87454964124476E+001	 6.16133109676019E+000	 1.55693258455813E+002	 3.78566396361883E-002	 7.01342782679493E+001	 6.26703432069064E-001	-2.08790591055871E+001
 0.85	 9.67700611469037E-001	-3.05326873922005E+001	 6.14214235757998E+000	 1.54196963641574E+002	 4.00880912440180E-002	 6.89168626590590E+001	 6.23741720386628E-001	-2.21674478639439E+001
 0.90	 9.64031779975341E-001	-3.23182734469793E+001	 6.12194136732318E+000	 1.52704694132791E+002	 4.22961838474856E-002	 6.77033986256788E+001	 6.20624445077952E-001	-2.34529829263594E+001
 0.95	 9.60192242476697E-001	-3.41021889702930E+001	 6.10075265468475E+000	 1.51216648842181E+002	 4.44798545394836E-002	 6.64940963913863E+001	 6.17355515690451E-001	-2.47355407947622E+001
 1.00	 9.56187966594831E-001	-3.58843725010503E+001	 6.07860160168747E+000	 1.49733020804777E+002	 4.66380876865063E-002	 6.52891580267657E+001	 6.13938981709585E-001	-2.60150049884388E+001
 1.05	 9.52025111762120E-001	-3.76647667492824E+001	 6.05551436774373E+000	 1.48253997007373E+002	 4.87699160326231E-002	 6.40887778241864E+001	 6.10379020965500E-001	-2.72912662850246E+001
 1.10	 9.47710012192255E-001	-3.94433185942010E+001	 6.03151781321528E+000	 1.46779758238136E+002	 5.08744216129780E-002	 6.28931425438382E+001	 6.06679927954422E-001	-2.85642229425246E+001
 1.15	 9.43249159767512E-001	-4.12199790544220E+001	 6.00663942286452E+000	 1.45310478956296E+002	 5.29507364789469E-002	 6.17024315763188E+001	 6.02846102134440E-001	-2.98337809024448E+001
 1.20	 9.38649186921162E-001	-4.29947032302417E+001	 5.98090722957689E+000	 1.43846327181744E+002	 5.49980432382563E-002	 6.05168170518456E+001	 5.98882036253285E-001	-3.10998539742727E+001
 1.25	 9.33916849589779E-001	-4.47674502179730E+001	 5.95434973871326E+000	 1.42387464404285E+002	 5.70155754144242E-002	 5.93364639163907E+001	 5.94792304762608E-001	-3.23623640016351E+001
 1.30	 9.29059010306246E-001	-4.65381829966130E+001	 5.92699585343281E+000	 1.40934045512139E+002	 5.90026176308638E-002	 5.81615299885638E+001	 5.90581552370535E-001	-3.36212410104881E+001
 1.35	 9.24082621499368E-001	-4.83068682870893E+001	 5.89887480130381E+000	 1.39486218739245E+002	 6.09585056258675E-002	 5.69921660067793E+001	 5.86254482781136E-001	-3.48764233399411E+001
 1.40	 9.18994709061334E-001	-5.00734763845478E+001	 5.87001606249627E+000	 1.38044125630816E+002	 6.28826261054541E-002	 5.58285156733214E+001	 5.81815847665611E-001	-3.61278577562102E+001
 1.45	 9.13802356238918E-001	-5.18379809642857E+001	 5.84044929982440E+000	 1.36607901026484E+002	 6.47744164417264E-002	 5.46707156997993E+001	 5.77270435906691E-001	-3.73754995504433E+001
 1.50	 9.08512687899411E-001	-5.36003588619509E+001	 5.81020429088421E+000	 1.35177673060410E+002	 6.66333642249822E-002	 5.35188958571531E+001	 5.72623063153778E-001	-3.86193126210522E+001
 1.55	 9.03132855216429E-001	-5.53605898288547E+001	 5.77931086250146E+000	 1.33753563177552E+002	 6.84590066782512E-002	 5.23731790322180E+001	 5.67878561722565E-001	-3.98592695413982E+001
 1.60	 8.97670020815865E-001	-5.71186562632994E+001	 5.74779882768201E+000	 1.32335686165324E+002	 7.02509299433292E-002	 5.12336812921876E+001	 5.63041770868866E-001	-4.10953516135732E+001
 1.65	 8.92131344416426E-001	-5.88745429189023E+001	 5.71569792522949E+000	 1.30924150199837E+002	 7.20087682476503E-002	 5.01005119577400E+001	 5.58117527462765E-001	-4.23275489091571E+001
 1.70	 8.86523968994239E-001	-6.06282365910755E+001	 5.68303776216832E+000	 1.29519056905808E+002	 7.37322029615052E-002	 4.89737736851648E+001	 5.53110657085016E-001	-4.35558602978110E+001
 1.75	 8.80855007495756E-001	-6.23797257828730E+001	 5.64984775908649E+000	 1.28120501429297E+002	 7.54209615552279E-002	 4.78535625575536E+001	 5.48025965564135E-001	-4.47802934645717E+001
 1.80	 8.75131530118247E-001	-6.41290003515141E+001	 5.61615709848666E+000	 1.26728572522349E+002	 7.70748164659797E-002	 4.67399681848903E+001	 5.42868230968752E-001	-4.60008649167351E+001
 1.85	 8.69360552172389E-001	-6.58760511370084E+001	 5.58199467621208E+000	 1.25343352638649E+002	 7.86935838837069E-002	 4.56330738127000E+001	 5.37642196066571E-001	-4.72175999812127E+001
 1.90	 8.63549022537142E-001	-6.76208695744103E+001	 5.54738905598971E+000	 1.23964918039271E+002	 8.02771224657077E-002	 4.45329564388003E+001	 5.32352561257538E-001	-4.84305327932121E+001
 1.95	 8.57703812712711E-001	-6.93634472913077E+001	 5.51236842711351E+000	 1.22593338907607E+002	 8.18253319890692E-002	 4.34396869376019E+001	 5.27003977986069E-001	-4.96397062771200E+001
 2.00	 8.51831706473702E-001	-7.11037756922398E+001	 5.47696056527036E+000	 1.21228679472627E+002	 8.33381519499831E-002	 4.23533301913778E+001	 5.21601042633855E-001	-5.08451721203627E+001
 2.05	 8.45939390120866E-001	-7.28418455318650E+001	 5.44119279649268E+000	 1.19870998139533E+002	 8.48155601186530E-002	 4.12739452278226E+001	 5.16148290892303E-001	-5.20469907410858E+001
 2.10	 8.40033443326815E-001	-7.45776464787721E+001	 5.40509196420525E+000	 1.18520347627003E+002	 8.62575710581744E-002	 4.02015853632545E+001	 5.10650192610804E-001	-5.32452312503490E+001
 2.15	 8.34120330567933E-001	-7.63111666718768E+001	 5.36868439931925E+000	 1.17176775110168E+002	 8.76642346154065E-002	 3.91362983507845E+001	 5.05111147115077E-001	-5.44399714095775E+001
 2.20	 8.28206393132569E-001	-7.80423922715421E+001	 5.33199589331108E+000	 1.15840322368527E+002	 8.90356343914386E-002	 3.80781265327533E+001	 4.99535478987327E-001	-5.56312975838888E+001
 2.25	 8.22297841693064E-001	-7.97713070075439E+001	 5.29505167421268E+000	 1.14511025938016E+002	 9.03718861988450E-002	 3.70271069967781E+001	 4.93927434298356E-001	-5.68193046919090E+001
 2.30	 8.16400749427561E-001	-8.14978917261080E+001	 5.25787638542994E+000	 1.13188917266527E+002	 9.16731365124978E-002	 3.59832717347706E+001	 4.88291177280090E-001	-5.80040961525861E+001
 2.35	 8.10521045676034E-001	-8.32221239384010E+001	 5.22049406729444E+000	 1.11874022872121E+002	 9.29395609202208E-002	 3.49466478042600E+001	 4.82630787425314E-001	-5.91857838294768E+001
 2.40	 8.04664510113719E-001	-8.49439773728325E+001	 5.18292814124787E+000	 1.10566364503322E+002	 9.41713625791516E-002	 3.39172574914412E+001	 4.76950257000412E-001	-6.03644879728754E+001
 2.45	 7.98836767424306E-001	-8.66634215336431E+001	 5.14520139655177E+000	 1.09265959300832E+002	 9.53687706832049E-002	 3.28951184753638E+001	 4.71253488955783E-001	-6.15403371601066E+001
 2.50	 7.93043282454729E-001	-8.83804212683399E+001	 5.10733597940889E+000	 1.07972819960087E+002	 9.65320389465662E-002	 3.18802439926981E+001	 4.65544295217696E-001	-6.27134682342105E+001
 2.55	 7.87289355833051E-001	-9.00949363465377E+001	 5.06935338438007E+000	 1.06686954894111E+002	 9.76614441077178E-002	 3.08726430025902E+001	 4.59826395344676E-001	-6.38840262411270E+001
 2.60	 7.81580120030843E-001	-9.18069210528580E+001	 5.03127444797633E+000	 1.05408368396144E+002	 9.87572844580351E-002	 2.98723203510977E+001	 4.54103415531098E-001	-6.50521643654710E+001
 2.65	 7.75920535851758E-001	-9.35163237965387E+001	 4.99311934430537E+000	 1.04137060801590E+002	 9.98198783985872E-002	 2.88792769347803E+001	 4.48378887940153E-001	-6.62180438648000E+001
 2.70	 7.70315389328195E-001	-9.52230867404300E+001	 4.95490758264964E+000	 1.02873028648830E+002	 1.00849563028340E-001	 2.78935098630200E+001	 4.42656250348293E-001	-6.73818340022669E+001
 2.75	 7.64769289008791E-001	-9.69271454520785E+001	 4.91665800685383E+000	 1.01616264838534E+002	 1.01846692766575E-001	 2.69150126187002E+001	 4.36938846082873E-001	-6.85437119773399E+001
 2.80	 7.59286663619825E-001	-9.86284285795374E+001	 4.87838879640043E+000	 1.00366758791071E+002	 1.02811638011952E-001	 2.59437752168940E+001	 4.31229924235176E-001	-6.97038628542819E+001
 2.85	 7.53871760084850E-001	-1.00326857554553E+002	 4.84011746905316E+000	 9.91244966017385E+001	 1.03744783840285E-001	 2.49797843612557E+001	 4.25532640130564E-001	-7.08624794878359E+001
 2.90	 7.48528641887461E-001	-1.02022346325673E+002	 4.80186088495079E+000	 9.78894611934899E+001	 1.04646528742759E-001	 2.40230235978376E+001	 4.19850056038220E-001	-7.20197624455483E+001
 2.95	 7.43261187763461E-001	-1.03714801123803E+002	 4.76363525203549E+000	 9.66616324669087E+001	 1.05517283405986E-001	 2.30734734660757E+001	 4.14185142102801E-001	-7.31759199259519E+001
 3.00	 7.38073090709480E-001	-1.05404120262543E+002	 4.72545613270446E+000	 9.54409874472183E+001	 1.06357469535019E-001	 2.21311116467429E+001	 4.08540777480884E-001	-7.43311676717375E+001
 4.00 0.66 -134.81  4.17   71.95  0.122    9.04 0.41  -91.47 
 5.00 0.61 -165.34  3.67   50.43  0.131   -5.97 0.34 -110.05 
 6.00 0.58  165.88  3.26   30.28  0.136  -20.15 0.27 -129.24 
 7.00 0.57  137.00  2.91   10.68  0.139  -33.84 0.21 -150.49 
 8.00 0.58  110.78  2.61   -8.09  0.139  -45.60 0.17 -174.77 
 9.00 0.61   86.75  2.32  -26.38  0.138  -57.65 0.13  154.01 
10.00 0.65   66.25  2.10  -43.90  0.138  -68.22 0.11  118.18 
11.00 0.69   46.88  1.89  -61.97  0.137  -79.30 0.14   78.36 
12.00 0.72   27.76  1.69  -79.90  0.135  -90.87 0.19   49.57 
13.00 0.74    8.62  1.49  -97.18  0.129 -102.19 0.26   29.95 
14.00 0.77   -5.28  1.31 -112.92  0.123 -110.80 0.33    9.45 
15.00 0.82  -16.03  1.16 -128.66  0.118 -120.09 0.39   -7.98 
16.00 0.82  -28.32  1.02 -144.87  0.115 -129.92 0.45  -22.30 
17.00 0.84  -40.43  0.91 -159.49  0.115 -139.60 0.51  -32.23 
18.00 0.86  -56.14  0.80 -175.19  0.108 -149.17 0.57  -44.43 

 0.01	 6.57303723466021E-002	 9.09588769983524E-001	 1.71057391416496E-001	 1.59839484664069E-001
 0.02	 6.57578611747370E-002	 9.09552826259986E-001	 3.42115811754570E-001	 1.59837826854730E-001
 0.03	 6.58036580904832E-002	 9.09492945946190E-001	 5.13176285184486E-001	 1.59835063871116E-001
 0.04	 6.58677317066810E-002	 9.09409173953362E-001	 6.84239831067236E-001	 1.59831195758238E-001
 0.05	 6.59500338851001E-002	 9.09301578576467E-001	 8.55307466500972E-001	 1.59826222576425E-001
 0.06	 6.60505002272492E-002	 9.09170250831124E-001	 1.02638020839097E+000	 1.59820144401502E-001
 0.07	 6.61690511909929E-002	 9.09015302969835E-001	 1.19745907444095E+000	 1.59812961325311E-001
 0.08	 6.63055930402827E-002	 9.08836867210104E-001	 1.36854508305909E+000	 1.59804673456097E-001
 0.09	 6.64600185249375E-002	 9.08635094805679E-001	 1.53963925322067E+000	 1.59795280918701E-001
 0.10	 6.66322074027498E-002	 9.08410155315085E-001	 1.71074260423626E+000	 1.59784783854623E-001
 0.15	 6.77545448888569E-002	 9.06945081698440E-001	 2.56643276074300E+000	 1.59715736752066E-001
 0.20	 6.92963347425967E-002	 9.04935540868194E-001	 3.42250542953608E+000	 1.59619107267164E-001
 0.25	 7.12311409769515E-002	 9.02418734049030E-001	 4.27908825244324E+000	 1.59494931749634E-001
 0.30	 7.35288007806372E-002	 8.99437036824728E-001	 5.13630913771733E+000	 1.59343256878118E-001
 0.35	 7.61573690420340E-002	 8.96035238900157E-001	 5.99429637313514E+000	 1.59164139656224E-001
 0.40	 7.90847657085927E-002	 8.92258211077712E-001	 6.85317871666329E+000	 1.58957647411048E-001
 0.45	 8.22800156456180E-002	 8.88149154390157E-001	 7.71308547398601E+000	 1.58723857787775E-001
 0.50	 8.57140760420675E-002	 8.83748437302561E-001	 8.57414657157095E+000	 1.58462858739442E-001
 0.55	 8.93603080427650E-002	 8.79092939513619E-001	 9.43649262987660E+000	 1.58174748512634E-001
 0.60	 9.31946738137145E-002	 8.74215786127154E-001	 1.03002550382331E+001	 1.57859635630044E-001
 0.65	 9.71957405502437E-002	 8.69146355686769E-001	 1.11655660318762E+001	 1.57517638870509E-001
 0.70	 1.01344560863416E-001	 8.63910462926718E-001	 1.20325587709883E+001	 1.57148887246880E-001
 0.75	 1.05624482826690E-001	 8.58530640248317E-001	 1.29013674215269E+001	 1.56753519981936E-001
 0.80	 1.10020927442918E-001	 8.53026464154620E-001	 1.37721272378676E+001	 1.56331686482393E-001
 0.85	 1.14521158465453E-001	 8.47414891221526E-001	 1.46449746469640E+001	 1.55883546311100E-001
 0.90	 1.19114059849864E-001	 8.41710581981598E-001	 1.55200473342264E+001	 1.55409269157412E-001
 0.95	 1.23789929316126E-001	 8.35926200794170E-001	 1.63974843309907E+001	 1.54909034805763E-001
 1.00	 1.28540291981609E-001	 8.30072686213852E-001	 1.72774261036410E+001	 1.54383033102461E-001
 1.05	 1.33357735178241E-001	 8.24159490414432E-001	 1.81600146444779E+001	 1.53831463920703E-001
 1.10	 1.38235763884455E-001	 8.18194788607724E-001	 1.90453935642987E+001	 1.53254537123830E-001
 1.15	 1.43168675292355E-001	 8.12185660676852E-001	 1.99337081868127E+001	 1.52652472526838E-001
 1.20	 1.48151450612902E-001	 8.06138247822209E-001	 2.08251056449135E+001	 1.52025499856145E-001
 1.25	 1.53179662104156E-001	 8.00057887171225E-001	 2.17197349788064E+001	 1.51373858707658E-001
 1.30	 1.58249393362043E-001	 7.93949227212044E-001	 2.26177472361092E+001	 1.50697798503125E-001
 1.35	 1.63357171058839E-001	 7.87816326692390E-001	 2.35192955738772E+001	 1.49997578444822E-001
 1.40	 1.68499906500575E-001	 7.81662739350109E-001	 2.44245353625817E+001	 1.49273467468574E-001
 1.45	 1.73674845571263E-001	 7.75491586553791E-001	 2.53336242920831E+001	 1.48525744195132E-001
 1.50	 1.78879525821821E-001	 7.69305619654114E-001	 2.62467224795092E+001	 1.47754696879944E-001
 1.55	 1.84111739637105E-001	 7.63107273591498E-001	 2.71639925790622E+001	 1.46960623361328E-001
 1.60	 1.89369502570570E-001	 7.56898713078188E-001	 2.80855998936894E+001	 1.46143831007069E-001
 1.65	 1.94651026073268E-001	 7.50681872474118E-001	 2.90117124885017E+001	 1.45304636659474E-001
 1.70	 1.99954693961865E-001	 7.44458490304524E-001	 2.99425013058838E+001	 1.44443366578909E-001
 1.75	 2.05279042071522E-001	 7.38230139220821E-001	 3.08781402821506E+001	 1.43560356385832E-001
 1.80	 2.10622740625176E-001	 7.31998252081938E-001	 3.18188064655710E+001	 1.42655951001357E-001
 1.85	 2.15984578923452E-001	 7.25764144728293E-001	 3.27646801355663E+001	 1.41730504586380E-001
 1.90	 2.21363452020412E-001	 7.19529035932017E-001	 3.37159449228540E+001	 1.40784380479288E-001
 1.95	 2.26758349102004E-001	 7.13294064932535E-001	 3.46727879302428E+001	 1.39817951132269E-001
 2.00	 2.32168343327245E-001	 7.07060306904004E-001	 3.56353998537296E+001	 1.38831598046278E-001
 2.05	 2.37592582928568E-001	 7.00828786648429E-001	 3.66039751035283E+001	 1.37825711704666E-001
 2.10	 2.43030283398370E-001	 6.94600490764033E-001	 3.75787119245797E+001	 1.36800691505494E-001
 2.15	 2.48480720614558E-001	 6.88376378501124E-001	 3.85598125159686E+001	 1.35756945692607E-001
 2.20	 2.53943224779484E-001	 6.82157391486381E-001	 3.95474831487246E+001	 1.34694891285436E-001
 2.25	 2.59417175065054E-001	 6.75944462469878E-001	 4.05419342812807E+001	 1.33614954007602E-001
 2.30	 2.64901994872156E-001	 6.69738523226770E-001	 4.15433806717853E+001	 1.32517568214353E-001
 2.35	 2.70397147625619E-001	 6.63540511726619E-001	 4.25520414864614E+001	 1.31403176818835E-001
 2.40	 2.75902133037048E-001	 6.57351378667092E-001	 4.35681404029663E+001	 1.30272231217255E-001
 2.45	 2.81416483777178E-001	 6.51172093455097E-001	 4.45919057076402E+001	 1.29125191212973E-001
 2.50	 2.86939762507432E-001	 6.45003649706646E-001	 4.56235703854290E+001	 1.27962524939526E-001
 2.55	 2.92471559227189E-001	 6.38847070326659E-001	 4.66633722010445E+001	 1.26784708782651E-001
 2.60	 2.98011488899043E-001	 6.32703412221266E-001	 4.77115537698353E+001	 1.25592227301314E-001
 2.65	 3.03559189319282E-001	 6.26573770687671E-001	 4.87683626166148E+001	 1.24385573147801E-001
 2.70	 3.09114319205175E-001	 6.20459283520121E-001	 4.98340512205272E+001	 1.23165246986885E-001
